Title: * Netlist that describe the physical circuit (components and connexions between them) to simulate, in Xyce formalism.
Date: Mon Apr 22 18:50:33 2024
Plotname: Operating Point
Flags: real
No. Variables: 191
No. Points:            1
Offset:    0.0000000000000000e+00
Command: Linear Technology Corporation LTspice
Variables:
	0	V(i_001)	voltage
	1	V(i_002)	voltage
	2	V(i_003)	voltage
	3	V(i_004)	voltage
	4	V(i_005)	voltage
	5	V(i_006)	voltage
	6	V(i_007)	voltage
	7	V(i_008)	voltage
	8	V(i_009)	voltage
	9	V(i_010)	voltage
	10	V(i_011)	voltage
	11	V(i_012)	voltage
	12	V(i_013)	voltage
	13	V(i_014)	voltage
	14	V(i_015)	voltage
	15	V(i_016)	voltage
	16	V(i_017)	voltage
	17	V(i_018)	voltage
	18	V(i_019)	voltage
	19	V(i_020)	voltage
	20	V(i_021)	voltage
	21	V(i_022)	voltage
	22	V(i_023)	voltage
	23	V(i_024)	voltage
	24	V(i_025)	voltage
	25	V(i_026)	voltage
	26	V(i_027)	voltage
	27	V(i_028)	voltage
	28	V(i_029)	voltage
	29	V(i_030)	voltage
	30	V(i_031)	voltage
	31	V(i_032)	voltage
	32	V(i_033)	voltage
	33	V(i_034)	voltage
	34	V(i_035)	voltage
	35	V(i_036)	voltage
	36	V(i_037)	voltage
	37	V(i_038)	voltage
	38	V(i_039)	voltage
	39	V(i_040)	voltage
	40	V(i_041)	voltage
	41	V(i_042)	voltage
	42	V(i_043)	voltage
	43	V(i_044)	voltage
	44	V(i_045)	voltage
	45	V(i_046)	voltage
	46	V(i_047)	voltage
	47	V(i_048)	voltage
	48	V(i_049)	voltage
	49	V(i_050)	voltage
	50	V(i_051)	voltage
	51	V(i_052)	voltage
	52	V(i_053)	voltage
	53	V(i_054)	voltage
	54	V(i_055)	voltage
	55	V(i_056)	voltage
	56	V(i_057)	voltage
	57	V(i_058)	voltage
	58	V(i_059)	voltage
	59	V(i_060)	voltage
	60	V(i_061)	voltage
	61	V(i_062)	voltage
	62	V(i_063)	voltage
	63	V(i_064)	voltage
	64	V(b_001)	voltage
	65	V(b_002)	voltage
	66	V(b_003)	voltage
	67	V(hidden_activ_out_h001_001)	voltage
	68	V(hidden_activ_out_h001_002)	voltage
	69	V(hidden_activ_out_h001_003)	voltage
	70	V(hidden_activ_out_h001_004)	voltage
	71	V(hidden_activ_out_h001_005)	voltage
	72	V(hidden_activ_out_h001_006)	voltage
	73	V(hidden_activ_out_h001_007)	voltage
	74	V(hidden_activ_out_h001_008)	voltage
	75	V(hidden_activ_out_h001_009)	voltage
	76	V(hidden_activ_out_h001_010)	voltage
	77	V(hidden_activ_out_h001_011)	voltage
	78	V(hidden_activ_out_h001_012)	voltage
	79	V(hidden_activ_out_h001_013)	voltage
	80	V(hidden_activ_out_h001_014)	voltage
	81	V(hidden_activ_out_h001_015)	voltage
	82	V(hidden_activ_out_h001_016)	voltage
	83	V(hidden_activ_out_h001_017)	voltage
	84	V(hidden_activ_out_h001_018)	voltage
	85	V(hidden_activ_out_h001_019)	voltage
	86	V(hidden_activ_out_h001_020)	voltage
	87	V(hidden_activ_out_h002_001)	voltage
	88	V(hidden_activ_out_h002_002)	voltage
	89	V(hidden_activ_out_h002_003)	voltage
	90	V(hidden_activ_out_h002_004)	voltage
	91	V(hidden_activ_out_h002_005)	voltage
	92	V(hidden_activ_out_h002_006)	voltage
	93	V(hidden_activ_out_h002_007)	voltage
	94	V(hidden_activ_out_h002_008)	voltage
	95	V(hidden_activ_out_h002_009)	voltage
	96	V(hidden_activ_out_h002_010)	voltage
	97	V(tia_h_out_001_001+)	voltage
	98	V(tia_h_out_001_001-)	voltage
	99	V(sum_h_out_001_001)	voltage
	100	V(tia_h_out_001_002+)	voltage
	101	V(tia_h_out_001_002-)	voltage
	102	V(sum_h_out_001_002)	voltage
	103	V(tia_h_out_001_003+)	voltage
	104	V(tia_h_out_001_003-)	voltage
	105	V(sum_h_out_001_003)	voltage
	106	V(tia_h_out_001_004+)	voltage
	107	V(tia_h_out_001_004-)	voltage
	108	V(sum_h_out_001_004)	voltage
	109	V(tia_h_out_001_005+)	voltage
	110	V(tia_h_out_001_005-)	voltage
	111	V(sum_h_out_001_005)	voltage
	112	V(tia_h_out_001_006+)	voltage
	113	V(tia_h_out_001_006-)	voltage
	114	V(sum_h_out_001_006)	voltage
	115	V(tia_h_out_001_007+)	voltage
	116	V(tia_h_out_001_007-)	voltage
	117	V(sum_h_out_001_007)	voltage
	118	V(tia_h_out_001_008+)	voltage
	119	V(tia_h_out_001_008-)	voltage
	120	V(sum_h_out_001_008)	voltage
	121	V(tia_h_out_001_009+)	voltage
	122	V(tia_h_out_001_009-)	voltage
	123	V(sum_h_out_001_009)	voltage
	124	V(tia_h_out_001_010+)	voltage
	125	V(tia_h_out_001_010-)	voltage
	126	V(sum_h_out_001_010)	voltage
	127	V(tia_h_out_001_011+)	voltage
	128	V(tia_h_out_001_011-)	voltage
	129	V(sum_h_out_001_011)	voltage
	130	V(tia_h_out_001_012+)	voltage
	131	V(tia_h_out_001_012-)	voltage
	132	V(sum_h_out_001_012)	voltage
	133	V(tia_h_out_001_013+)	voltage
	134	V(tia_h_out_001_013-)	voltage
	135	V(sum_h_out_001_013)	voltage
	136	V(tia_h_out_001_014+)	voltage
	137	V(tia_h_out_001_014-)	voltage
	138	V(sum_h_out_001_014)	voltage
	139	V(tia_h_out_001_015+)	voltage
	140	V(tia_h_out_001_015-)	voltage
	141	V(sum_h_out_001_015)	voltage
	142	V(tia_h_out_001_016+)	voltage
	143	V(tia_h_out_001_016-)	voltage
	144	V(sum_h_out_001_016)	voltage
	145	V(tia_h_out_001_017+)	voltage
	146	V(tia_h_out_001_017-)	voltage
	147	V(sum_h_out_001_017)	voltage
	148	V(tia_h_out_001_018+)	voltage
	149	V(tia_h_out_001_018-)	voltage
	150	V(sum_h_out_001_018)	voltage
	151	V(tia_h_out_001_019+)	voltage
	152	V(tia_h_out_001_019-)	voltage
	153	V(sum_h_out_001_019)	voltage
	154	V(tia_h_out_001_020+)	voltage
	155	V(tia_h_out_001_020-)	voltage
	156	V(sum_h_out_001_020)	voltage
	157	V(tia_h_out_002_001+)	voltage
	158	V(tia_h_out_002_001-)	voltage
	159	V(sum_h_out_002_001)	voltage
	160	V(tia_h_out_002_002+)	voltage
	161	V(tia_h_out_002_002-)	voltage
	162	V(sum_h_out_002_002)	voltage
	163	V(tia_h_out_002_003+)	voltage
	164	V(tia_h_out_002_003-)	voltage
	165	V(sum_h_out_002_003)	voltage
	166	V(tia_h_out_002_004+)	voltage
	167	V(tia_h_out_002_004-)	voltage
	168	V(sum_h_out_002_004)	voltage
	169	V(tia_h_out_002_005+)	voltage
	170	V(tia_h_out_002_005-)	voltage
	171	V(sum_h_out_002_005)	voltage
	172	V(tia_h_out_002_006+)	voltage
	173	V(tia_h_out_002_006-)	voltage
	174	V(sum_h_out_002_006)	voltage
	175	V(tia_h_out_002_007+)	voltage
	176	V(tia_h_out_002_007-)	voltage
	177	V(sum_h_out_002_007)	voltage
	178	V(tia_h_out_002_008+)	voltage
	179	V(tia_h_out_002_008-)	voltage
	180	V(sum_h_out_002_008)	voltage
	181	V(tia_h_out_002_009+)	voltage
	182	V(tia_h_out_002_009-)	voltage
	183	V(sum_h_out_002_009)	voltage
	184	V(tia_h_out_002_010+)	voltage
	185	V(tia_h_out_002_010-)	voltage
	186	V(sum_h_out_002_010)	voltage
	187	V(tia_h_out_003_001+)	voltage
	188	V(tia_h_out_003_001-)	voltage
	189	V(sum_h_out_003_001)	voltage
	190	V(hidden_activ_out_h003_001)	voltage
Values:
0		7.500000000000000e-01
	7.500000000000000e-01
	7.500000000000000e-01
	7.500000000000000e-01
	7.500000000000000e-01
	7.500000000000000e-01
	7.500000000000000e-01
	7.500000000000000e-01
	7.500000000000000e-01
	7.500000000000000e-01
	7.500000000000000e-01
	7.500000000000000e-01
	7.500000000000000e-01
	7.500000000000000e-01
	7.500000000000000e-01
	7.500000000000000e-01
	7.500000000000000e-01
	7.500000000000000e-01
	7.500000000000000e-01
	7.500000000000000e-01
	7.500000000000000e-01
	7.500000000000000e-01
	7.500000000000000e-01
	7.500000000000000e-01
	7.500000000000000e-01
	7.500000000000000e-01
	7.500000000000000e-01
	7.500000000000000e-01
	7.500000000000000e-01
	7.500000000000000e-01
	7.500000000000000e-01
	7.500000000000000e-01
	7.500000000000000e-01
	7.500000000000000e-01
	7.500000000000000e-01
	7.500000000000000e-01
	7.500000000000000e-01
	7.500000000000000e-01
	7.500000000000000e-01
	7.500000000000000e-01
	7.500000000000000e-01
	7.500000000000000e-01
	7.500000000000000e-01
	7.500000000000000e-01
	7.500000000000000e-01
	7.500000000000000e-01
	7.500000000000000e-01
	7.500000000000000e-01
	7.500000000000000e-01
	7.500000000000000e-01
	7.500000000000000e-01
	7.500000000000000e-01
	7.500000000000000e-01
	7.500000000000000e-01
	7.500000000000000e-01
	7.500000000000000e-01
	7.500000000000000e-01
	7.500000000000000e-01
	7.500000000000000e-01
	7.500000000000000e-01
	7.500000000000000e-01
	7.500000000000000e-01
	7.500000000000000e-01
	7.500000000000000e-01
	7.500000000000000e-01
	7.500000000000000e-01
	7.500000000000000e-01
	3.606711481546176e-01
	3.054314122777031e-03
	2.313941284250233e+00
	3.041161896209244e-03
	1.795465582991554e+00
	3.054216400250181e-03
	7.072626761617032e-01
	1.814831128541228e+00
	1.667015436832048e+00
	2.343387441258637e+00
	3.054096246352806e-03
	2.343207534923011e+00
	2.323382402875228e-01
	2.343159254118105e+00
	9.748702964280833e-01
	2.342586849080202e+00
	4.549894275796503e-01
	2.342950548783435e+00
	2.162258030033459e+00
	1.189606587715236e-01
	3.054528761926020e-03
	3.054564535907020e-03
	3.054594478710090e-03
	3.054325065920682e-03
	1.625874158807947e+00
	3.051054519336771e-03
	3.053965811525008e-03
	3.054593033228518e-03
	3.052610221935094e-03
	3.054505591427506e-03
	-2.597749157384035e+00
	-2.596440042846552e+00
	3.582976646382443e-01
	-2.495666174730890e+00
	-2.623556872844993e+00
	-3.016117535102724e+00
	-2.512074733268634e+00
	-2.474658121522397e+00
	2.345220940028927e+00
	-2.499625654071754e+00
	-2.518233374713010e+00
	-7.595495214554262e-01
	-2.583827118153987e+00
	-2.556522253782412e+00
	1.795958494059690e+00
	-2.435109913446696e+00
	-2.517633679772649e+00
	-2.994916604999910e+00
	-2.594348635194831e+00
	-2.586759675155418e+00
	7.055903588943391e-01
	-2.480533656019755e+00
	-2.452597959916255e+00
	1.815362993980434e+00
	-2.560911672647539e+00
	-2.535868401951192e+00
	1.667253605631549e+00
	-2.645387468187745e+00
	-2.510965764275235e+00
	3.039844317962661e+00
	-2.502611605813128e+00
	-2.570866470624239e+00
	-2.976955686456489e+00
	-2.584015399089302e+00
	-2.501420832263874e+00
	3.020895152305929e+00
	-2.615978993156269e+00
	-2.617041321891581e+00
	2.297022232057593e-01
	-2.583604641342756e+00
	-2.509044969510469e+00
	3.015382756629098e+00
	-2.554862141457190e+00
	-2.542324409126866e+00
	9.737320047931979e-01
	-2.566562444609954e+00
	-2.517017501605334e+00
	2.955126080130620e+00
	-2.555933897935728e+00
	-2.552804686577821e+00
	4.528083697172152e-01
	-2.589225249208433e+00
	-2.531851643672606e+00
	2.993374344301913e+00
	-2.542442355872643e+00
	-2.508389147865912e+00
	2.163485560269063e+00
	-2.555266830493431e+00
	-2.558215472376423e+00
	1.160900812373917e-01
	-1.622375602791886e+00
	-1.948662481808164e+00
	-3.043326892180543e+00
	-1.365192706873574e+00
	-1.750402539869936e+00
	-3.047322313529485e+00
	-1.344022868825675e+00
	-1.771892567220307e+00
	-3.049831383743127e+00
	-1.459270170813096e+00
	-1.553302968289776e+00
	-3.003543799026221e+00
	-1.338438963896184e+00
	-1.310841266449831e+00
	1.626021442789774e+00
	-1.603355827041115e+00
	-1.649775952315820e+00
	-2.434097830683879e+00
	-1.356668624333968e+00
	-1.413231150448375e+00
	-2.941214924397099e+00
	-1.340609109883182e+00
	-1.812808167410960e+00
	-3.051792385179588e+00
	-1.760234118636757e+00
	-1.811963522384578e+00
	-2.704756967500400e+00
	-1.594098351102839e+00
	-1.833263012157499e+00
	-3.035274202311307e+00
	-2.711210385273789e-01
	-2.157414254254267e-01
	2.951671237116663e+00
	2.342565243651163e+00
