Title: * C:\Users\assh2802\OneDrive - USherbrooke\circuits\XYCE\simulations\ActivationFunction\Sigmoid4_HA\LTspice-cli-master\LTspice-cli-master\spice\activ_v18\complete_circuit_generated.asc
Date: Sun Jan 28 20:43:18 2024
Plotname: Transient Analysis
Flags: real forward
No. Variables: 134
No. Points:         1095
Offset:    0.0000000000000000e+00
Command: Linear Technology Corporation LTspice
Backannotation: u1 + - v+ v- out disa
Backannotation: u2 + - v+ v- out disa
Backannotation: u3 1 2 99 50 40
Backannotation: u4 in out
Backannotation: u1:_f1 1 2 3 4
Backannotation: u1:_f3 1 2 3 4
Backannotation: u1:_f2 1 2 3 4
Backannotation: u1:_f4 1 2 3 4
Backannotation: u1:_f5 1 2 3 4
Backannotation: u1:_f6 1 2 3 4
Backannotation: u2:_f1 1 2 3 4
Backannotation: u2:_f3 1 2 3 4
Backannotation: u2:_f2 1 2 3 4
Backannotation: u2:_f4 1 2 3 4
Backannotation: u2:_f5 1 2 3 4
Backannotation: u2:_f6 1 2 3 4
Backannotation: u4:urelu 1 2 99 50 40
Backannotation: u4:urelu_inv + - v+ v- out disa
Backannotation: u4:urelu_inv:_f1 1 2 3 4
Backannotation: u4:urelu_inv:_f3 1 2 3 4
Backannotation: u4:urelu_inv:_f2 1 2 3 4
Backannotation: u4:urelu_inv:_f4 1 2 3 4
Backannotation: u4:urelu_inv:_f5 1 2 3 4
Backannotation: u4:urelu_inv:_f6 1 2 3 4
Backannotation: x_cbar_26by10 vin[0] vin[1] vin[2] vin[3] vin[4] vin[5] vin[6] vin[7] vin[8] vin[9] vin[10] vin[11] vin[12] vin[13] vin[14] vin[15] vin[16] vin[17] vin[18] vin[19] vin[20] vin[21] vin[22] vin[23] vin[24] vin[25] vout_+[0] vout_+[1] vout_+[2] vout_+[3] vout_+[4] vout_-[0] vout_-[1] vout_-[2] vout_-[3] vout_-[4]
Backannotation: x_aux_10by5 tia_h_in_+[0] tia_h_in_+[1] tia_h_in_+[2] tia_h_in_+[3] tia_h_in_+[4] tia_h_in_-[0] tia_h_in_-[1] tia_h_in_-[2] tia_h_in_-[3] tia_h_in_-[4] h_act_out[0] h_act_out[1] h_act_out[2] h_act_out[3] h_act_out[4]
Backannotation: x_cbar_6by2 vin[0] vin[1] vin[2] vin[3] vin[4] vin[5] vout_+[0] vout_-[0]
Backannotation: x_aux_2by1 tia_h_in_+[0] tia_h_in_-[0] h_act_out[0]
Backannotation: x_aux_10by5:x0 tia_h_in_+ tia_h_in_- sum_activ_out
Backannotation: x_aux_10by5:x1 tia_h_in_+ tia_h_in_- sum_activ_out
Backannotation: x_aux_10by5:x2 tia_h_in_+ tia_h_in_- sum_activ_out
Backannotation: x_aux_10by5:x3 tia_h_in_+ tia_h_in_- sum_activ_out
Backannotation: x_aux_10by5:x4 tia_h_in_+ tia_h_in_- sum_activ_out
Backannotation: x_aux_2by1:x0 tia_h_in_+ tia_h_in_- sum_activ_out
Backannotation: x_aux_10by5:x0:x1 iin vcm vctrl vdd
Backannotation: x_aux_10by5:x0:x2 in ip vdd vss iout vref
Backannotation: x_aux_10by5:x0:x3 vin vout
Backannotation: x_aux_10by5:x0:x4 vp vout
Backannotation: x_aux_10by5:x1:x1 iin vcm vctrl vdd
Backannotation: x_aux_10by5:x1:x2 in ip vdd vss iout vref
Backannotation: x_aux_10by5:x1:x3 vin vout
Backannotation: x_aux_10by5:x1:x4 vp vout
Backannotation: x_aux_10by5:x2:x1 iin vcm vctrl vdd
Backannotation: x_aux_10by5:x2:x2 in ip vdd vss iout vref
Backannotation: x_aux_10by5:x2:x3 vin vout
Backannotation: x_aux_10by5:x2:x4 vp vout
Backannotation: x_aux_10by5:x3:x1 iin vcm vctrl vdd
Backannotation: x_aux_10by5:x3:x2 in ip vdd vss iout vref
Backannotation: x_aux_10by5:x3:x3 vin vout
Backannotation: x_aux_10by5:x3:x4 vp vout
Backannotation: x_aux_10by5:x4:x1 iin vcm vctrl vdd
Backannotation: x_aux_10by5:x4:x2 in ip vdd vss iout vref
Backannotation: x_aux_10by5:x4:x3 vin vout
Backannotation: x_aux_10by5:x4:x4 vp vout
Backannotation: x_aux_10by5:x0:x1:u1 1 2 3 4 5
Backannotation: x_aux_10by5:x0:x1:u2 1 2 3 4 5
Backannotation: x_aux_10by5:x0:x3:u1 1 2 3 4 5
Backannotation: x_aux_10by5:x1:x1:u1 1 2 3 4 5
Backannotation: x_aux_10by5:x1:x1:u2 1 2 3 4 5
Backannotation: x_aux_10by5:x1:x3:u1 1 2 3 4 5
Backannotation: x_aux_10by5:x2:x1:u1 1 2 3 4 5
Backannotation: x_aux_10by5:x2:x1:u2 1 2 3 4 5
Backannotation: x_aux_10by5:x2:x3:u1 1 2 3 4 5
Backannotation: x_aux_10by5:x3:x1:u1 1 2 3 4 5
Backannotation: x_aux_10by5:x3:x1:u2 1 2 3 4 5
Backannotation: x_aux_10by5:x3:x3:u1 1 2 3 4 5
Backannotation: x_aux_10by5:x4:x1:u1 1 2 3 4 5
Backannotation: x_aux_10by5:x4:x1:u2 1 2 3 4 5
Backannotation: x_aux_10by5:x4:x3:u1 1 2 3 4 5
Variables:
	0	time	time
	1	V(vin_cb26by10[0])	voltage
	2	V(vout_cb26by10_+[0])	voltage
	3	V(vout_cb26by10_-[0])	voltage
	4	V(vout_cb26by10_+[1])	voltage
	5	V(vout_cb26by10_-[1])	voltage
	6	V(vout_cb26by10_+[2])	voltage
	7	V(vout_cb26by10_-[2])	voltage
	8	V(vout_cb26by10_+[3])	voltage
	9	V(vout_cb26by10_-[3])	voltage
	10	V(vout_cb26by10_+[4])	voltage
	11	V(vout_cb26by10_-[4])	voltage
	12	V(vin_cb26by10[1])	voltage
	13	V(vin_cb26by10[2])	voltage
	14	V(vin_cb26by10[3])	voltage
	15	V(vin_cb26by10[4])	voltage
	16	V(vin_cb26by10[5])	voltage
	17	V(vin_cb26by10[6])	voltage
	18	V(vin_cb26by10[7])	voltage
	19	V(vin_cb26by10[8])	voltage
	20	V(vin_cb26by10[9])	voltage
	21	V(vin_cb26by10[10])	voltage
	22	V(vin_cb26by10[11])	voltage
	23	V(vin_cb26by10[12])	voltage
	24	V(vin_cb26by10[13])	voltage
	25	V(vin_cb26by10[14])	voltage
	26	V(vin_cb26by10[15])	voltage
	27	V(vin_cb26by10[16])	voltage
	28	V(vin_cb26by10[17])	voltage
	29	V(vin_cb26by10[18])	voltage
	30	V(vin_cb26by10[19])	voltage
	31	V(vin_cb26by10[20])	voltage
	32	V(vin_cb26by10[21])	voltage
	33	V(vin_cb26by10[22])	voltage
	34	V(vin_cb26by10[23])	voltage
	35	V(vin_cb26by10[24])	voltage
	36	V(vin_cb26by10[25])	voltage
	37	V(vin_cb6by2[0])	voltage
	38	V(vin_cb6by2[1])	voltage
	39	V(vin_cb6by2[2])	voltage
	40	V(vin_cb6by2[3])	voltage
	41	V(vin_cb6by2[4])	voltage
	42	V(vout_cb6by2_+[0])	voltage
	43	V(vout_cb6by2_-[0])	voltage
	44	V(vin_cb6by2[5])	voltage
	45	V(h_act_out[0])	voltage
	46	I(V0)	device_current
	47	I(V1)	device_current
	48	I(V2)	device_current
	49	I(V3)	device_current
	50	I(V4)	device_current
	51	I(V5)	device_current
	52	I(V6)	device_current
	53	I(V7)	device_current
	54	I(V8)	device_current
	55	I(V9)	device_current
	56	I(V10)	device_current
	57	I(V11)	device_current
	58	I(V12)	device_current
	59	I(V13)	device_current
	60	I(V14)	device_current
	61	I(V15)	device_current
	62	I(V16)	device_current
	63	I(V17)	device_current
	64	I(V18)	device_current
	65	I(V19)	device_current
	66	I(V20)	device_current
	67	I(V21)	device_current
	68	I(V22)	device_current
	69	I(V23)	device_current
	70	I(V24)	device_current
	71	I(V25)	device_current
	72	I(V26)	device_current
	73	Ix(x_cbar_26by10:VIN[0])	subckt_current
	74	Ix(x_cbar_26by10:VIN[1])	subckt_current
	75	Ix(x_cbar_26by10:VIN[2])	subckt_current
	76	Ix(x_cbar_26by10:VIN[3])	subckt_current
	77	Ix(x_cbar_26by10:VIN[4])	subckt_current
	78	Ix(x_cbar_26by10:VIN[5])	subckt_current
	79	Ix(x_cbar_26by10:VIN[6])	subckt_current
	80	Ix(x_cbar_26by10:VIN[7])	subckt_current
	81	Ix(x_cbar_26by10:VIN[8])	subckt_current
	82	Ix(x_cbar_26by10:VIN[9])	subckt_current
	83	Ix(x_cbar_26by10:VIN[10])	subckt_current
	84	Ix(x_cbar_26by10:VIN[11])	subckt_current
	85	Ix(x_cbar_26by10:VIN[12])	subckt_current
	86	Ix(x_cbar_26by10:VIN[13])	subckt_current
	87	Ix(x_cbar_26by10:VIN[14])	subckt_current
	88	Ix(x_cbar_26by10:VIN[15])	subckt_current
	89	Ix(x_cbar_26by10:VIN[16])	subckt_current
	90	Ix(x_cbar_26by10:VIN[17])	subckt_current
	91	Ix(x_cbar_26by10:VIN[18])	subckt_current
	92	Ix(x_cbar_26by10:VIN[19])	subckt_current
	93	Ix(x_cbar_26by10:VIN[20])	subckt_current
	94	Ix(x_cbar_26by10:VIN[21])	subckt_current
	95	Ix(x_cbar_26by10:VIN[22])	subckt_current
	96	Ix(x_cbar_26by10:VIN[23])	subckt_current
	97	Ix(x_cbar_26by10:VIN[24])	subckt_current
	98	Ix(x_cbar_26by10:VIN[25])	subckt_current
	99	Ix(x_cbar_26by10:VOUT_+[0])	subckt_current
	100	Ix(x_cbar_26by10:VOUT_+[1])	subckt_current
	101	Ix(x_cbar_26by10:VOUT_+[2])	subckt_current
	102	Ix(x_cbar_26by10:VOUT_+[3])	subckt_current
	103	Ix(x_cbar_26by10:VOUT_+[4])	subckt_current
	104	Ix(x_cbar_26by10:VOUT_-[0])	subckt_current
	105	Ix(x_cbar_26by10:VOUT_-[1])	subckt_current
	106	Ix(x_cbar_26by10:VOUT_-[2])	subckt_current
	107	Ix(x_cbar_26by10:VOUT_-[3])	subckt_current
	108	Ix(x_cbar_26by10:VOUT_-[4])	subckt_current
	109	Ix(x_aux_10by5:TIA_H_IN_+[0])	subckt_current
	110	Ix(x_aux_10by5:TIA_H_IN_+[1])	subckt_current
	111	Ix(x_aux_10by5:TIA_H_IN_+[2])	subckt_current
	112	Ix(x_aux_10by5:TIA_H_IN_+[3])	subckt_current
	113	Ix(x_aux_10by5:TIA_H_IN_+[4])	subckt_current
	114	Ix(x_aux_10by5:TIA_H_IN_-[0])	subckt_current
	115	Ix(x_aux_10by5:TIA_H_IN_-[1])	subckt_current
	116	Ix(x_aux_10by5:TIA_H_IN_-[2])	subckt_current
	117	Ix(x_aux_10by5:TIA_H_IN_-[3])	subckt_current
	118	Ix(x_aux_10by5:TIA_H_IN_-[4])	subckt_current
	119	Ix(x_aux_10by5:H_ACT_OUT[0])	subckt_current
	120	Ix(x_aux_10by5:H_ACT_OUT[1])	subckt_current
	121	Ix(x_aux_10by5:H_ACT_OUT[2])	subckt_current
	122	Ix(x_aux_10by5:H_ACT_OUT[3])	subckt_current
	123	Ix(x_aux_10by5:H_ACT_OUT[4])	subckt_current
	124	Ix(x_cbar_6by2:VIN[0])	subckt_current
	125	Ix(x_cbar_6by2:VIN[1])	subckt_current
	126	Ix(x_cbar_6by2:VIN[2])	subckt_current
	127	Ix(x_cbar_6by2:VIN[3])	subckt_current
	128	Ix(x_cbar_6by2:VIN[4])	subckt_current
	129	Ix(x_cbar_6by2:VIN[5])	subckt_current
	130	Ix(x_cbar_6by2:VOUT_+[0])	subckt_current
	131	Ix(x_cbar_6by2:VOUT_-[0])	subckt_current
	132	Ix(x_aux_2by1:TIA_H_IN_+[0])	subckt_current
	133	Ix(x_aux_2by1:TIA_H_IN_-[0])	subckt_current
Values:
0		0.000000000000000e+00
	0.000000000000000e+00
	6.700431282120747e-02
	4.381981662434330e-01
	6.488259058166312e-02
	3.787014909371562e-01
	6.558544958484142e-02
	3.942244007168545e-01
	6.735837501260408e-02
	4.601084748703278e-01
	4.530455527778014e-02
	4.809661005087894e-01
	0.000000000000000e+00
	0.000000000000000e+00
	0.000000000000000e+00
	0.000000000000000e+00
	0.000000000000000e+00
	0.000000000000000e+00
	0.000000000000000e+00
	0.000000000000000e+00
	0.000000000000000e+00
	0.000000000000000e+00
	0.000000000000000e+00
	0.000000000000000e+00
	0.000000000000000e+00
	0.000000000000000e+00
	0.000000000000000e+00
	0.000000000000000e+00
	0.000000000000000e+00
	0.000000000000000e+00
	0.000000000000000e+00
	0.000000000000000e+00
	0.000000000000000e+00
	0.000000000000000e+00
	0.000000000000000e+00
	0.000000000000000e+00
	0.000000000000000e+00
	9.940988221599698e-01
	9.940988221546480e-01
	9.940988221523355e-01
	9.940988221622430e-01
	9.940988221600195e-01
	-4.112873514047887e-04
	-3.983914928597622e-04
	0.000000000000000e+00
	3.054333832244059e-03
	2.028731499726078e-04
	2.087347501204825e-04
	2.095170548651837e-04
	1.966645234333549e-04
	2.002841640161478e-04
	1.984760337741928e-04
	1.977551452194692e-04
	1.953548246862463e-04
	2.008831169348886e-04
	2.025866757046009e-04
	2.046630144380377e-04
	1.987250577295622e-04
	1.976007152540381e-04
	1.995766415274994e-04
	2.027638975594974e-04
	2.032049551470963e-04
	2.047526230277071e-04
	2.025996668143101e-04
	2.038683991685816e-04
	2.023847631058199e-04
	2.128544467210882e-04
	2.074379323553517e-04
	2.011711116030975e-04
	2.036220665644801e-04
	2.087422470284401e-04
	2.022128184474574e-04
	-7.283909431841670e-08
	-2.028731499726078e-04
	-2.087347501204825e-04
	-2.095170548651837e-04
	-1.966645234333549e-04
	-2.002841640161478e-04
	-1.984760337741928e-04
	-1.977551452194692e-04
	-1.953548246862463e-04
	-2.008831169348886e-04
	-2.025866757046009e-04
	-2.046630144380378e-04
	-1.987250577295622e-04
	-1.976007152540381e-04
	-1.995766415274994e-04
	-2.027638975594974e-04
	-2.032049551470963e-04
	-2.047526230277071e-04
	-2.025996668143101e-04
	-2.038683991685817e-04
	-2.023847631058199e-04
	-2.128544467210882e-04
	-2.074379323553517e-04
	-2.011711116030975e-04
	-2.036220665644801e-04
	-2.087422470284401e-04
	-2.022128184474574e-04
	1.195493028474294e-04
	1.199409237694500e-04
	1.198111562338510e-04
	1.194839828083009e-04
	1.235696791670764e-04
	9.179690597581468e-04
	1.026646616869656e-03
	9.978899792146370e-04
	8.790135949945941e-04
	8.454354995560975e-04
	-1.195493028474295e-04
	-1.199409237694500e-04
	-1.198111562338510e-04
	-1.194839828083009e-04
	-1.235696791670764e-04
	-9.179690597581507e-04
	-1.026646616869656e-03
	-9.978899792146361e-04
	-8.790135949945953e-04
	-8.454354995560982e-04
	-1.888632541045341e-04
	-2.420697660101910e-04
	-2.652001165979543e-04
	-1.661296473261318e-04
	-1.883696526426080e-04
	1.888662659877392e-04
	2.420690044102494e-04
	2.652001166959551e-04
	1.661297458060731e-04
	1.883705285569443e-04
	7.283909431841670e-08
	-3.873196898438679e-04
	-6.633888107074117e-04
	3.802542629415097e-04
	6.536826940685796e-04
1		9.765624960978488e-15
	0.000000000000000e+00
	6.700431282120764e-02
	4.381981662434334e-01
	6.488259058166346e-02
	3.787014909371559e-01
	6.558544958484129e-02
	3.942244007168544e-01
	6.735837501260361e-02
	4.601084748703274e-01
	4.530455527778023e-02
	4.809661005087897e-01
	0.000000000000000e+00
	0.000000000000000e+00
	0.000000000000000e+00
	0.000000000000000e+00
	0.000000000000000e+00
	0.000000000000000e+00
	0.000000000000000e+00
	0.000000000000000e+00
	0.000000000000000e+00
	0.000000000000000e+00
	0.000000000000000e+00
	0.000000000000000e+00
	0.000000000000000e+00
	0.000000000000000e+00
	0.000000000000000e+00
	0.000000000000000e+00
	0.000000000000000e+00
	0.000000000000000e+00
	0.000000000000000e+00
	0.000000000000000e+00
	0.000000000000000e+00
	0.000000000000000e+00
	0.000000000000000e+00
	0.000000000000000e+00
	0.000000000000000e+00
	9.940988221599697e-01
	9.940988221546481e-01
	9.940988221523354e-01
	9.940988221622429e-01
	9.940988221600194e-01
	-4.112873513866217e-04
	-3.983914928914876e-04
	0.000000000000000e+00
	3.054333832243864e-03
	2.028731499726078e-04
	2.087347501204825e-04
	2.095170548651837e-04
	1.966645234333549e-04
	2.002841640161478e-04
	1.984760337741927e-04
	1.977551452194693e-04
	1.953548246862463e-04
	2.008831169348886e-04
	2.025866757046009e-04
	2.046630144380377e-04
	1.987250577295622e-04
	1.976007152540381e-04
	1.995766415274994e-04
	2.027638975594974e-04
	2.032049551470963e-04
	2.047526230277071e-04
	2.025996668143102e-04
	2.038683991685817e-04
	2.023847631058199e-04
	2.128544467210882e-04
	2.074379323553517e-04
	2.011711116030975e-04
	2.036220665644801e-04
	2.087422470284401e-04
	2.022128184474574e-04
	-7.283909431846171e-08
	-2.028731499726078e-04
	-2.087347501204825e-04
	-2.095170548651837e-04
	-1.966645234333549e-04
	-2.002841640161478e-04
	-1.984760337741927e-04
	-1.977551452194692e-04
	-1.953548246862463e-04
	-2.008831169348886e-04
	-2.025866757046009e-04
	-2.046630144380378e-04
	-1.987250577295622e-04
	-1.976007152540381e-04
	-1.995766415274994e-04
	-2.027638975594974e-04
	-2.032049551470963e-04
	-2.047526230277071e-04
	-2.025996668143101e-04
	-2.038683991685817e-04
	-2.023847631058199e-04
	-2.128544467210882e-04
	-2.074379323553517e-04
	-2.011711116030975e-04
	-2.036220665644801e-04
	-2.087422470284401e-04
	-2.022128184474575e-04
	1.195493028474298e-04
	1.199409237694507e-04
	1.198111562338507e-04
	1.194839828083001e-04
	1.235696791670767e-04
	9.179690597581475e-04
	1.026646616869655e-03
	9.978899792146370e-04
	8.790135949945933e-04
	8.454354995560989e-04
	-1.195493028673025e-04
	-1.199409237731137e-04
	-1.198111562501158e-04
	-1.194839828078568e-04
	-1.235696791707402e-04
	-9.179690597470460e-04
	-1.026646616882093e-03
	-9.978899792399485e-04
	-8.790135950092516e-04
	-8.454354995423297e-04
	-4.328008507832679e-04
	-4.860073626889248e-04
	-5.093556427609245e-04
	-4.102851734873257e-04
	-4.323035240310434e-04
	1.888662659877419e-04
	2.420690044102538e-04
	2.652001166959602e-04
	1.661297458060750e-04
	1.883705285569441e-04
	7.283909431848749e-08
	-3.873196898438586e-04
	-6.633888107074348e-04
	3.802542629415135e-04
	6.536826940685725e-04
2		1.953124992195698e-14
	0.000000000000000e+00
	6.700431282120742e-02
	4.381981662434331e-01
	6.488259058166501e-02
	3.787014909371569e-01
	6.558544958484085e-02
	3.942244007168543e-01
	6.735837501260274e-02
	4.601084748703260e-01
	4.530455527777930e-02
	4.809661005087891e-01
	0.000000000000000e+00
	0.000000000000000e+00
	0.000000000000000e+00
	0.000000000000000e+00
	0.000000000000000e+00
	0.000000000000000e+00
	0.000000000000000e+00
	0.000000000000000e+00
	0.000000000000000e+00
	0.000000000000000e+00
	0.000000000000000e+00
	0.000000000000000e+00
	0.000000000000000e+00
	0.000000000000000e+00
	0.000000000000000e+00
	0.000000000000000e+00
	0.000000000000000e+00
	0.000000000000000e+00
	0.000000000000000e+00
	0.000000000000000e+00
	0.000000000000000e+00
	0.000000000000000e+00
	0.000000000000000e+00
	0.000000000000000e+00
	0.000000000000000e+00
	9.940988221599696e-01
	9.940988221546481e-01
	9.940988221523354e-01
	9.940988221622429e-01
	9.940988221600193e-01
	-4.112873513863999e-04
	-3.983914928912629e-04
	0.000000000000000e+00
	3.054333832243735e-03
	2.028731499726080e-04
	2.087347501204827e-04
	2.095170548651839e-04
	1.966645234333551e-04
	2.002841640161479e-04
	1.984760337741929e-04
	1.977551452194695e-04
	1.953548246862464e-04
	2.008831169348888e-04
	2.025866757046011e-04
	2.046630144380380e-04
	1.987250577295624e-04
	1.976007152540383e-04
	1.995766415274996e-04
	2.027638975594976e-04
	2.032049551470964e-04
	2.047526230277073e-04
	2.025996668143103e-04
	2.038683991685819e-04
	2.023847631058201e-04
	2.128544467210884e-04
	2.074379323553519e-04
	2.011711116030977e-04
	2.036220665644803e-04
	2.087422470284403e-04
	2.022128184474578e-04
	-7.283909431841678e-08
	-2.028731499726077e-04
	-2.087347501204824e-04
	-2.095170548651835e-04
	-1.966645234333547e-04
	-2.002841640161476e-04
	-1.984760337741926e-04
	-1.977551452194691e-04
	-1.953548246862461e-04
	-2.008831169348883e-04
	-2.025866757046007e-04
	-2.046630144380376e-04
	-1.987250577295620e-04
	-1.976007152540379e-04
	-1.995766415274992e-04
	-2.027638975594972e-04
	-2.032049551470961e-04
	-2.047526230277069e-04
	-2.025996668143099e-04
	-2.038683991685815e-04
	-2.023847631058197e-04
	-2.128544467210880e-04
	-2.074379323553515e-04
	-2.011711116030973e-04
	-2.036220665644799e-04
	-2.087422470284400e-04
	-2.022128184474574e-04
	1.195493028474293e-04
	1.199409237694534e-04
	1.198111562338499e-04
	1.194839828082985e-04
	1.235696791670741e-04
	9.179690597581469e-04
	1.026646616869658e-03
	9.978899792146363e-04
	8.790135949945907e-04
	8.454354995560970e-04
	-1.195493028521480e-04
	-1.199409237394742e-04
	-1.198111562411230e-04
	-1.194839828172938e-04
	-1.235696791704626e-04
	-9.179690597768056e-04
	-1.026646616853221e-03
	-9.978899792355085e-04
	-8.790135950212498e-04
	-8.454354995632053e-04
	-4.325922345283304e-04
	-4.858024717225094e-04
	-5.093668186318199e-04
	-4.103000746485195e-04
	-4.320986330664043e-04
	1.888662659877418e-04
	2.420690044102537e-04
	2.652001166959601e-04
	1.661297458060750e-04
	1.883705285569441e-04
	7.283909431844756e-08
	-3.873196898438585e-04
	-6.633888107074347e-04
	3.802542629415135e-04
	6.536826940685723e-04
3		3.906249984391395e-14
	0.000000000000000e+00
	6.700431282120786e-02
	4.381981662434331e-01
	6.488259058166612e-02
	3.787014909371574e-01
	6.558544958484018e-02
	3.942244007168532e-01
	6.735837501260218e-02
	4.601084748703251e-01
	4.530455527778047e-02
	4.809661005087897e-01
	0.000000000000000e+00
	0.000000000000000e+00
	0.000000000000000e+00
	0.000000000000000e+00
	0.000000000000000e+00
	0.000000000000000e+00
	0.000000000000000e+00
	0.000000000000000e+00
	0.000000000000000e+00
	0.000000000000000e+00
	0.000000000000000e+00
	0.000000000000000e+00
	0.000000000000000e+00
	0.000000000000000e+00
	0.000000000000000e+00
	0.000000000000000e+00
	0.000000000000000e+00
	0.000000000000000e+00
	0.000000000000000e+00
	0.000000000000000e+00
	0.000000000000000e+00
	0.000000000000000e+00
	0.000000000000000e+00
	0.000000000000000e+00
	0.000000000000000e+00
	9.940988221599696e-01
	9.940988221546481e-01
	9.940988221523354e-01
	9.940988221622429e-01
	9.940988221600193e-01
	-4.112873513857347e-04
	-3.983914928908136e-04
	0.000000000000000e+00
	3.054333832243663e-03
	2.028731499726074e-04
	2.087347501204821e-04
	2.095170548651832e-04
	1.966645234333544e-04
	2.002841640161473e-04
	1.984760337741923e-04
	1.977551452194688e-04
	1.953548246862458e-04
	2.008831169348881e-04
	2.025866757046004e-04
	2.046630144380373e-04
	1.987250577295617e-04
	1.976007152540376e-04
	1.995766415274989e-04
	2.027638975594969e-04
	2.032049551470958e-04
	2.047526230277066e-04
	2.025996668143096e-04
	2.038683991685812e-04
	2.023847631058195e-04
	2.128544467210877e-04
	2.074379323553512e-04
	2.011711116030970e-04
