Title: * C:\Users\assh2802\OneDrive - USherbrooke\circuits\XYCE\simulations\ActivationFunction\Sigmoid4_HA\LTspice-cli-master\LTspice-cli-master\spice\activ_v15\complete_circuit_generated.asc
Date: Sun Jan 28 19:47:10 2024
Plotname: Operating Point
Flags: real
No. Variables: 128
No. Points:            1
Offset:    0.0000000000000000e+00
Command: Linear Technology Corporation LTspice
Backannotation: u3 1 2 99 50 40
Backannotation: u4 in out
Backannotation: u4:urelu 1 2 99 50 40
Backannotation: u4:urelu_inv + - v+ v- out disa
Backannotation: u4:urelu_inv:_f1 1 2 3 4
Backannotation: u4:urelu_inv:_f3 1 2 3 4
Backannotation: u4:urelu_inv:_f2 1 2 3 4
Backannotation: u4:urelu_inv:_f4 1 2 3 4
Backannotation: u4:urelu_inv:_f5 1 2 3 4
Backannotation: u4:urelu_inv:_f6 1 2 3 4
Backannotation: u1 + - v+ v- out disa
Backannotation: u2 + - v+ v- out disa
Backannotation: u3 1 2 99 50 40
Backannotation: u4 in out
Backannotation: u1:_f1 1 2 3 4
Backannotation: u1:_f3 1 2 3 4
Backannotation: u1:_f2 1 2 3 4
Backannotation: u1:_f4 1 2 3 4
Backannotation: u1:_f5 1 2 3 4
Backannotation: u1:_f6 1 2 3 4
Backannotation: u2:_f1 1 2 3 4
Backannotation: u2:_f3 1 2 3 4
Backannotation: u2:_f2 1 2 3 4
Backannotation: u2:_f4 1 2 3 4
Backannotation: u2:_f5 1 2 3 4
Backannotation: u2:_f6 1 2 3 4
Backannotation: u4:urelu 1 2 99 50 40
Backannotation: u4:urelu_inv + - v+ v- out disa
Backannotation: u4:urelu_inv:_f1 1 2 3 4
Backannotation: u4:urelu_inv:_f3 1 2 3 4
Backannotation: u4:urelu_inv:_f2 1 2 3 4
Backannotation: u4:urelu_inv:_f4 1 2 3 4
Backannotation: u4:urelu_inv:_f5 1 2 3 4
Backannotation: u4:urelu_inv:_f6 1 2 3 4
Backannotation: x_cbar_26by10 vin[0] vin[1] vin[2] vin[3] vin[4] vin[5] vin[6] vin[7] vin[8] vin[9] vin[10] vin[11] vin[12] vin[13] vin[14] vin[15] vin[16] vin[17] vin[18] vin[19] vin[20] vin[21] vin[22] vin[23] vin[24] vin[25] vout_+[0] vout_+[1] vout_+[2] vout_+[3] vout_+[4] vout_-[0] vout_-[1] vout_-[2] vout_-[3] vout_-[4]
Backannotation: x_aux_10by5 tia_h_in_+[0] tia_h_in_+[1] tia_h_in_+[2] tia_h_in_+[3] tia_h_in_+[4] tia_h_in_-[0] tia_h_in_-[1] tia_h_in_-[2] tia_h_in_-[3] tia_h_in_-[4] h_act_out[0] h_act_out[1] h_act_out[2] h_act_out[3] h_act_out[4]
Backannotation: x_cbar_6by2 vin[0] vin[1] vin[2] vin[3] vin[4] vin[5] vout_+[0] vout_-[0]
Backannotation: x_aux_2by1 tia_h_in_+[0] tia_h_in_-[0] h_act_out[0]
Backannotation: x_aux_10by5:x0 tia_h_in_+ tia_h_in_- sum_activ_out
Backannotation: x_aux_10by5:x1 tia_h_in_+ tia_h_in_- sum_activ_out
Backannotation: x_aux_10by5:x2 tia_h_in_+ tia_h_in_- sum_activ_out
Backannotation: x_aux_10by5:x3 tia_h_in_+ tia_h_in_- sum_activ_out
Backannotation: x_aux_10by5:x4 tia_h_in_+ tia_h_in_- sum_activ_out
Backannotation: x_aux_2by1:x0 tia_h_in_+ tia_h_in_- sum_activ_out
Backannotation: x_aux_10by5:x0:x1 iin vcm vctrl vdd
Backannotation: x_aux_10by5:x0:x2 iin vcm vctrl vdd
Backannotation: x_aux_10by5:x1:x1 iin vcm vctrl vdd
Backannotation: x_aux_10by5:x1:x2 iin vcm vctrl vdd
Backannotation: x_aux_10by5:x2:x1 iin vcm vctrl vdd
Backannotation: x_aux_10by5:x2:x2 iin vcm vctrl vdd
Backannotation: x_aux_10by5:x3:x1 iin vcm vctrl vdd
Backannotation: x_aux_10by5:x3:x2 iin vcm vctrl vdd
Backannotation: x_aux_10by5:x4:x1 iin vcm vctrl vdd
Backannotation: x_aux_10by5:x4:x2 iin vcm vctrl vdd
Backannotation: x_aux_10by5:x0:x1:u1 1 2 3 4 5
Backannotation: x_aux_10by5:x0:x1:u2 1 2 3 4 5
Backannotation: x_aux_10by5:x0:x2:u1 1 2 3 4 5
Backannotation: x_aux_10by5:x0:x2:u2 1 2 3 4 5
Backannotation: x_aux_10by5:x1:x1:u1 1 2 3 4 5
Backannotation: x_aux_10by5:x1:x1:u2 1 2 3 4 5
Backannotation: x_aux_10by5:x1:x2:u1 1 2 3 4 5
Backannotation: x_aux_10by5:x1:x2:u2 1 2 3 4 5
Backannotation: x_aux_10by5:x2:x1:u1 1 2 3 4 5
Backannotation: x_aux_10by5:x2:x1:u2 1 2 3 4 5
Backannotation: x_aux_10by5:x2:x2:u1 1 2 3 4 5
Backannotation: x_aux_10by5:x2:x2:u2 1 2 3 4 5
Backannotation: x_aux_10by5:x3:x1:u1 1 2 3 4 5
Backannotation: x_aux_10by5:x3:x1:u2 1 2 3 4 5
Backannotation: x_aux_10by5:x3:x2:u1 1 2 3 4 5
Backannotation: x_aux_10by5:x3:x2:u2 1 2 3 4 5
Backannotation: x_aux_10by5:x4:x1:u1 1 2 3 4 5
Backannotation: x_aux_10by5:x4:x1:u2 1 2 3 4 5
Backannotation: x_aux_10by5:x4:x2:u1 1 2 3 4 5
Backannotation: x_aux_10by5:x4:x2:u2 1 2 3 4 5
Variables:
	0	V(vin_cb26by10[0])	voltage
	1	V(vout_cb26by10_+[0])	voltage
	2	V(vout_cb26by10_-[0])	voltage
	3	V(vout_cb26by10_+[1])	voltage
	4	V(vout_cb26by10_-[1])	voltage
	5	V(vout_cb26by10_+[2])	voltage
	6	V(vout_cb26by10_-[2])	voltage
	7	V(vout_cb26by10_+[3])	voltage
	8	V(vout_cb26by10_-[3])	voltage
	9	V(vout_cb26by10_+[4])	voltage
	10	V(vout_cb26by10_-[4])	voltage
	11	V(vin_cb26by10[1])	voltage
	12	V(vin_cb26by10[2])	voltage
	13	V(vin_cb26by10[3])	voltage
	14	V(vin_cb26by10[4])	voltage
	15	V(vin_cb26by10[5])	voltage
	16	V(vin_cb26by10[6])	voltage
	17	V(vin_cb26by10[7])	voltage
	18	V(vin_cb26by10[8])	voltage
	19	V(vin_cb26by10[9])	voltage
	20	V(vin_cb26by10[10])	voltage
	21	V(vin_cb26by10[11])	voltage
	22	V(vin_cb26by10[12])	voltage
	23	V(vin_cb26by10[13])	voltage
	24	V(vin_cb26by10[14])	voltage
	25	V(vin_cb26by10[15])	voltage
	26	V(vin_cb26by10[16])	voltage
	27	V(vin_cb26by10[17])	voltage
	28	V(vin_cb26by10[18])	voltage
	29	V(vin_cb26by10[19])	voltage
	30	V(vin_cb26by10[20])	voltage
	31	V(vin_cb26by10[21])	voltage
	32	V(vin_cb26by10[22])	voltage
	33	V(vin_cb26by10[23])	voltage
	34	V(vin_cb26by10[24])	voltage
	35	V(vin_cb26by10[25])	voltage
	36	V(vin_cb6by2[0])	voltage
	37	V(vin_cb6by2[1])	voltage
	38	V(vin_cb6by2[2])	voltage
	39	V(vin_cb6by2[3])	voltage
	40	V(vin_cb6by2[4])	voltage
	41	V(vout_cb6by2_+[0])	voltage
	42	V(vout_cb6by2_-[0])	voltage
	43	V(vin_cb6by2[5])	voltage
	44	V(h_act_out[0])	voltage
	45	I(V0)	device_current
	46	I(V1)	device_current
	47	I(V2)	device_current
	48	I(V3)	device_current
	49	I(V4)	device_current
	50	I(V5)	device_current
	51	I(V6)	device_current
	52	I(V7)	device_current
	53	I(V8)	device_current
	54	I(V9)	device_current
	55	I(V10)	device_current
	56	I(V11)	device_current
	57	I(V12)	device_current
	58	I(V13)	device_current
	59	I(V14)	device_current
	60	I(V15)	device_current
	61	I(V16)	device_current
	62	I(V17)	device_current
	63	I(V18)	device_current
	64	I(V19)	device_current
	65	I(V20)	device_current
	66	I(V21)	device_current
	67	I(V22)	device_current
	68	I(V23)	device_current
	69	I(V24)	device_current
	70	I(V25)	device_current
	71	I(V26)	device_current
	72	Ix(x_cbar_26by10:VIN[0])	subckt_current
	73	Ix(x_cbar_26by10:VIN[1])	subckt_current
	74	Ix(x_cbar_26by10:VIN[2])	subckt_current
	75	Ix(x_cbar_26by10:VIN[3])	subckt_current
	76	Ix(x_cbar_26by10:VIN[4])	subckt_current
	77	Ix(x_cbar_26by10:VIN[5])	subckt_current
	78	Ix(x_cbar_26by10:VIN[6])	subckt_current
	79	Ix(x_cbar_26by10:VIN[7])	subckt_current
	80	Ix(x_cbar_26by10:VIN[8])	subckt_current
	81	Ix(x_cbar_26by10:VIN[9])	subckt_current
	82	Ix(x_cbar_26by10:VIN[10])	subckt_current
	83	Ix(x_cbar_26by10:VIN[11])	subckt_current
	84	Ix(x_cbar_26by10:VIN[12])	subckt_current
	85	Ix(x_cbar_26by10:VIN[13])	subckt_current
	86	Ix(x_cbar_26by10:VIN[14])	subckt_current
	87	Ix(x_cbar_26by10:VIN[15])	subckt_current
	88	Ix(x_cbar_26by10:VIN[16])	subckt_current
	89	Ix(x_cbar_26by10:VIN[17])	subckt_current
	90	Ix(x_cbar_26by10:VIN[18])	subckt_current
	91	Ix(x_cbar_26by10:VIN[19])	subckt_current
	92	Ix(x_cbar_26by10:VIN[20])	subckt_current
	93	Ix(x_cbar_26by10:VIN[21])	subckt_current
	94	Ix(x_cbar_26by10:VIN[22])	subckt_current
	95	Ix(x_cbar_26by10:VIN[23])	subckt_current
	96	Ix(x_cbar_26by10:VIN[24])	subckt_current
	97	Ix(x_cbar_26by10:VIN[25])	subckt_current
	98	Ix(x_cbar_26by10:VOUT_+[0])	subckt_current
	99	Ix(x_cbar_26by10:VOUT_+[1])	subckt_current
	100	Ix(x_cbar_26by10:VOUT_+[2])	subckt_current
	101	Ix(x_cbar_26by10:VOUT_+[3])	subckt_current
	102	Ix(x_cbar_26by10:VOUT_+[4])	subckt_current
	103	Ix(x_cbar_26by10:VOUT_-[0])	subckt_current
	104	Ix(x_cbar_26by10:VOUT_-[1])	subckt_current
	105	Ix(x_cbar_26by10:VOUT_-[2])	subckt_current
	106	Ix(x_cbar_26by10:VOUT_-[3])	subckt_current
	107	Ix(x_cbar_26by10:VOUT_-[4])	subckt_current
	108	Ix(x_aux_10by5:TIA_H_IN_+[0])	subckt_current
	109	Ix(x_aux_10by5:TIA_H_IN_+[1])	subckt_current
	110	Ix(x_aux_10by5:TIA_H_IN_+[2])	subckt_current
	111	Ix(x_aux_10by5:TIA_H_IN_+[3])	subckt_current
	112	Ix(x_aux_10by5:TIA_H_IN_+[4])	subckt_current
	113	Ix(x_aux_10by5:TIA_H_IN_-[0])	subckt_current
	114	Ix(x_aux_10by5:TIA_H_IN_-[1])	subckt_current
	115	Ix(x_aux_10by5:TIA_H_IN_-[2])	subckt_current
	116	Ix(x_aux_10by5:TIA_H_IN_-[3])	subckt_current
	117	Ix(x_aux_10by5:TIA_H_IN_-[4])	subckt_current
	118	Ix(x_cbar_6by2:VIN[0])	subckt_current
	119	Ix(x_cbar_6by2:VIN[1])	subckt_current
	120	Ix(x_cbar_6by2:VIN[2])	subckt_current
	121	Ix(x_cbar_6by2:VIN[3])	subckt_current
	122	Ix(x_cbar_6by2:VIN[4])	subckt_current
	123	Ix(x_cbar_6by2:VIN[5])	subckt_current
	124	Ix(x_cbar_6by2:VOUT_+[0])	subckt_current
	125	Ix(x_cbar_6by2:VOUT_-[0])	subckt_current
	126	Ix(x_aux_2by1:TIA_H_IN_+[0])	subckt_current
	127	Ix(x_aux_2by1:TIA_H_IN_-[0])	subckt_current
Values:
0		0.000000000000000e+00
	3.999924631968637e-01
	3.999912205471956e-01
	3.999922056776909e-01
	3.999887562478198e-01
	3.999922928332842e-01
	3.999894749884101e-01
	3.999925045889932e-01
	3.999919582244145e-01
	3.999886899787514e-01
	3.999925688632551e-01
	0.000000000000000e+00
	0.000000000000000e+00
	0.000000000000000e+00
	0.000000000000000e+00
	0.000000000000000e+00
	0.000000000000000e+00
	0.000000000000000e+00
	0.000000000000000e+00
	0.000000000000000e+00
	0.000000000000000e+00
	0.000000000000000e+00
	0.000000000000000e+00
	0.000000000000000e+00
	0.000000000000000e+00
	0.000000000000000e+00
	0.000000000000000e+00
	0.000000000000000e+00
	0.000000000000000e+00
	0.000000000000000e+00
	0.000000000000000e+00
	0.000000000000000e+00
	0.000000000000000e+00
	0.000000000000000e+00
	0.000000000000000e+00
	0.000000000000000e+00
	3.038767346573135e-03
	2.643674404516869e-01
	4.729634445339909e-02
	3.039894683508321e-03
	2.342819824065581e+00
	-4.133378754461769e-04
	-4.176254257141767e-04
	0.000000000000000e+00
	1.106582364500633e+00
	3.085094836218569e-04
	3.240625837479772e-04
	3.232350971471288e-04
	3.135262606929370e-04
	3.175268589818244e-04
	3.136314809714429e-04
	3.239578568978307e-04
	3.158499978855517e-04
	3.205432152793789e-04
	3.196930130742116e-04
	3.278488183708027e-04
	3.162520297829595e-04
	3.154084237507647e-04
	3.184834246699958e-04
	3.296287951006000e-04
	3.217454570713067e-04
	3.227469707862855e-04
	3.235254064759857e-04
	3.256300438506232e-04
	3.136488994487831e-04
	3.279945021874892e-04
	3.218882068999773e-04
	3.194805658857135e-04
	3.201187896459142e-04
	3.130482186788273e-04
	3.883519914661489e-04
	-7.435208949412656e-08
	-3.085094836218570e-04
	-3.240625837479772e-04
	-3.232350971471288e-04
	-3.135262606929370e-04
	-3.175268589818244e-04
	-3.136314809714429e-04
	-3.239578568978307e-04
	-3.158499978855517e-04
	-3.205432152793789e-04
	-3.196930130742116e-04
	-3.278488183708027e-04
	-3.162520297829595e-04
	-3.154084237507647e-04
	-3.184834246699958e-04
	-3.296287951006000e-04
	-3.217454570713067e-04
	-3.227469707862855e-04
	-3.235254064759858e-04
	-3.256300438506233e-04
	-3.136488994487831e-04
	-3.279945021874892e-04
	-3.218882068999774e-04
	-3.194805658857135e-04
	-3.201187896459142e-04
	-3.130482186788273e-04
	-3.883519914661490e-04
	7.136677939972251e-04
	7.394192220049967e-04
	7.307038282476196e-04
	7.095286596925405e-04
	1.090982436271149e-03
	8.379303998119490e-04
	1.084355655351435e-03
	1.012482961877690e-03
	7.641640794963859e-04
	7.031013556213264e-04
	-7.136677939967101e-04
	-7.394192220073170e-04
	-7.307038282559717e-04
	-7.095286596906828e-04
	-1.090982436270357e-03
	-8.379303998136841e-04
	-1.084355655354138e-03
	-1.012482961878591e-03
	-7.641640795016867e-04
	-7.031013556209062e-04
	6.561192453847208e-07
	6.445040216726682e-05
	1.272343946441234e-05
	5.772863841975652e-07
	4.438349734472484e-04
	7.435208949412656e-08
	-3.089587071047387e-04
	-2.133578656932652e-04
	3.023151548363194e-04
	2.075982105634443e-04
