Title: * C:\Users\Hussein\UDeM\OneDrive - USherbrooke\circuits\XYCE\simulations\ActivationFunction\Sigmoid4_HA\LTspice-cli-master\LTspice-cli-master\spice\activ_v5\complete_circuit_generated.asc
Date: Mon Sep 18 13:58:35 2023
Plotname: Operating Point
Flags: real
No. Variables: 134
No. Points:            1
Offset:    0.0000000000000000e+00
Command: Linear Technology Corporation LTspice
Backannotation: u1 + - v+ v- out disa
Backannotation: u2 + - v+ v- out disa
Backannotation: u3 1 2 99 50 40
Backannotation: u1:_f1 1 2 3 4
Backannotation: u1:_f3 1 2 3 4
Backannotation: u1:_f2 1 2 3 4
Backannotation: u1:_f4 1 2 3 4
Backannotation: u1:_f5 1 2 3 4
Backannotation: u1:_f6 1 2 3 4
Backannotation: u2:_f1 1 2 3 4
Backannotation: u2:_f3 1 2 3 4
Backannotation: u2:_f2 1 2 3 4
Backannotation: u2:_f4 1 2 3 4
Backannotation: u2:_f5 1 2 3 4
Backannotation: u2:_f6 1 2 3 4
Backannotation: x_cbar_26by10 vin[0] vin[1] vin[2] vin[3] vin[4] vin[5] vin[6] vin[7] vin[8] vin[9] vin[10] vin[11] vin[12] vin[13] vin[14] vin[15] vin[16] vin[17] vin[18] vin[19] vin[20] vin[21] vin[22] vin[23] vin[24] vin[25] vout_+[0] vout_+[1] vout_+[2] vout_+[3] vout_+[4] vout_-[0] vout_-[1] vout_-[2] vout_-[3] vout_-[4]
Backannotation: x_aux_10by5 tia_h_in_+[0] tia_h_in_+[1] tia_h_in_+[2] tia_h_in_+[3] tia_h_in_+[4] tia_h_in_-[0] tia_h_in_-[1] tia_h_in_-[2] tia_h_in_-[3] tia_h_in_-[4] h_act_out[0] h_act_out[1] h_act_out[2] h_act_out[3] h_act_out[4]
Backannotation: x_cbar_6by2 vin[0] vin[1] vin[2] vin[3] vin[4] vin[5] vout_+[0] vout_-[0]
Backannotation: x_aux_2by1 tia_h_in_+[0] tia_h_in_-[0] h_act_out[0]
Backannotation: x_aux_10by5:x0 tia_h_in_+ tia_h_in_- sum_activ_out
Backannotation: x_aux_10by5:x1 tia_h_in_+ tia_h_in_- sum_activ_out
Backannotation: x_aux_10by5:x2 tia_h_in_+ tia_h_in_- sum_activ_out
Backannotation: x_aux_10by5:x3 tia_h_in_+ tia_h_in_- sum_activ_out
Backannotation: x_aux_10by5:x4 tia_h_in_+ tia_h_in_- sum_activ_out
Backannotation: x_aux_2by1:x0 tia_h_in_+ tia_h_in_- sum_activ_out
Backannotation: x_aux_10by5:x0:x2 vin vout
Backannotation: x_aux_10by5:x0:x1 vm vp vdd vss out
Backannotation: x_aux_10by5:x1:x2 vin vout
Backannotation: x_aux_10by5:x1:x1 vm vp vdd vss out
Backannotation: x_aux_10by5:x2:x2 vin vout
Backannotation: x_aux_10by5:x2:x1 vm vp vdd vss out
Backannotation: x_aux_10by5:x3:x2 vin vout
Backannotation: x_aux_10by5:x3:x1 vm vp vdd vss out
Backannotation: x_aux_10by5:x4:x2 vin vout
Backannotation: x_aux_10by5:x4:x1 vm vp vdd vss out
Backannotation: x_aux_2by1:x0:x2 vin vout
Backannotation: x_aux_2by1:x0:x1 vm vp vdd vss out
Backannotation: x_aux_10by5:x0:x2:u1 1 2 3 4 5
Backannotation: x_aux_10by5:x0:x1:x1 vdd vss vbiasp vbiasp2
Backannotation: x_aux_10by5:x1:x2:u1 1 2 3 4 5
Backannotation: x_aux_10by5:x1:x1:x1 vdd vss vbiasp vbiasp2
Backannotation: x_aux_10by5:x2:x2:u1 1 2 3 4 5
Backannotation: x_aux_10by5:x2:x1:x1 vdd vss vbiasp vbiasp2
Backannotation: x_aux_10by5:x3:x2:u1 1 2 3 4 5
Backannotation: x_aux_10by5:x3:x1:x1 vdd vss vbiasp vbiasp2
Backannotation: x_aux_10by5:x4:x2:u1 1 2 3 4 5
Backannotation: x_aux_10by5:x4:x1:x1 vdd vss vbiasp vbiasp2
Backannotation: x_aux_2by1:x0:x2:u1 1 2 3 4 5
Backannotation: x_aux_2by1:x0:x1:x1 vdd vss vbiasp vbiasp2
Variables:
	0	V(vin_cb26by10[0])	voltage
	1	V(vout_cb26by10_+[0])	voltage
	2	V(vout_cb26by10_-[0])	voltage
	3	V(vout_cb26by10_+[1])	voltage
	4	V(vout_cb26by10_-[1])	voltage
	5	V(vout_cb26by10_+[2])	voltage
	6	V(vout_cb26by10_-[2])	voltage
	7	V(vout_cb26by10_+[3])	voltage
	8	V(vout_cb26by10_-[3])	voltage
	9	V(vout_cb26by10_+[4])	voltage
	10	V(vout_cb26by10_-[4])	voltage
	11	V(vin_cb26by10[1])	voltage
	12	V(vin_cb26by10[2])	voltage
	13	V(vin_cb26by10[3])	voltage
	14	V(vin_cb26by10[4])	voltage
	15	V(vin_cb26by10[5])	voltage
	16	V(vin_cb26by10[6])	voltage
	17	V(vin_cb26by10[7])	voltage
	18	V(vin_cb26by10[8])	voltage
	19	V(vin_cb26by10[9])	voltage
	20	V(vin_cb26by10[10])	voltage
	21	V(vin_cb26by10[11])	voltage
	22	V(vin_cb26by10[12])	voltage
	23	V(vin_cb26by10[13])	voltage
	24	V(vin_cb26by10[14])	voltage
	25	V(vin_cb26by10[15])	voltage
	26	V(vin_cb26by10[16])	voltage
	27	V(vin_cb26by10[17])	voltage
	28	V(vin_cb26by10[18])	voltage
	29	V(vin_cb26by10[19])	voltage
	30	V(vin_cb26by10[20])	voltage
	31	V(vin_cb26by10[21])	voltage
	32	V(vin_cb26by10[22])	voltage
	33	V(vin_cb26by10[23])	voltage
	34	V(vin_cb26by10[24])	voltage
	35	V(vin_cb26by10[25])	voltage
	36	V(vin_cb6by2[0])	voltage
	37	V(vin_cb6by2[1])	voltage
	38	V(vin_cb6by2[2])	voltage
	39	V(vin_cb6by2[3])	voltage
	40	V(vin_cb6by2[4])	voltage
	41	V(vout_cb6by2_+[0])	voltage
	42	V(vout_cb6by2_-[0])	voltage
	43	V(vin_cb6by2[5])	voltage
	44	V(h_act_out[0])	voltage
	45	I(V0)	device_current
	46	I(V1)	device_current
	47	I(V2)	device_current
	48	I(V3)	device_current
	49	I(V4)	device_current
	50	I(V5)	device_current
	51	I(V6)	device_current
	52	I(V7)	device_current
	53	I(V8)	device_current
	54	I(V9)	device_current
	55	I(V10)	device_current
	56	I(V11)	device_current
	57	I(V12)	device_current
	58	I(V13)	device_current
	59	I(V14)	device_current
	60	I(V15)	device_current
	61	I(V16)	device_current
	62	I(V17)	device_current
	63	I(V18)	device_current
	64	I(V19)	device_current
	65	I(V20)	device_current
	66	I(V21)	device_current
	67	I(V22)	device_current
	68	I(V23)	device_current
	69	I(V24)	device_current
	70	I(V25)	device_current
	71	I(V26)	device_current
	72	Ix(x_cbar_26by10:VIN[0])	subckt_current
	73	Ix(x_cbar_26by10:VIN[1])	subckt_current
	74	Ix(x_cbar_26by10:VIN[2])	subckt_current
	75	Ix(x_cbar_26by10:VIN[3])	subckt_current
	76	Ix(x_cbar_26by10:VIN[4])	subckt_current
	77	Ix(x_cbar_26by10:VIN[5])	subckt_current
	78	Ix(x_cbar_26by10:VIN[6])	subckt_current
	79	Ix(x_cbar_26by10:VIN[7])	subckt_current
	80	Ix(x_cbar_26by10:VIN[8])	subckt_current
	81	Ix(x_cbar_26by10:VIN[9])	subckt_current
	82	Ix(x_cbar_26by10:VIN[10])	subckt_current
	83	Ix(x_cbar_26by10:VIN[11])	subckt_current
	84	Ix(x_cbar_26by10:VIN[12])	subckt_current
	85	Ix(x_cbar_26by10:VIN[13])	subckt_current
	86	Ix(x_cbar_26by10:VIN[14])	subckt_current
	87	Ix(x_cbar_26by10:VIN[15])	subckt_current
	88	Ix(x_cbar_26by10:VIN[16])	subckt_current
	89	Ix(x_cbar_26by10:VIN[17])	subckt_current
	90	Ix(x_cbar_26by10:VIN[18])	subckt_current
	91	Ix(x_cbar_26by10:VIN[19])	subckt_current
	92	Ix(x_cbar_26by10:VIN[20])	subckt_current
	93	Ix(x_cbar_26by10:VIN[21])	subckt_current
	94	Ix(x_cbar_26by10:VIN[22])	subckt_current
	95	Ix(x_cbar_26by10:VIN[23])	subckt_current
	96	Ix(x_cbar_26by10:VIN[24])	subckt_current
	97	Ix(x_cbar_26by10:VIN[25])	subckt_current
	98	Ix(x_cbar_26by10:VOUT_+[0])	subckt_current
	99	Ix(x_cbar_26by10:VOUT_+[1])	subckt_current
	100	Ix(x_cbar_26by10:VOUT_+[2])	subckt_current
	101	Ix(x_cbar_26by10:VOUT_+[3])	subckt_current
	102	Ix(x_cbar_26by10:VOUT_+[4])	subckt_current
	103	Ix(x_cbar_26by10:VOUT_-[0])	subckt_current
	104	Ix(x_cbar_26by10:VOUT_-[1])	subckt_current
	105	Ix(x_cbar_26by10:VOUT_-[2])	subckt_current
	106	Ix(x_cbar_26by10:VOUT_-[3])	subckt_current
	107	Ix(x_cbar_26by10:VOUT_-[4])	subckt_current
	108	Ix(x_aux_10by5:TIA_H_IN_+[0])	subckt_current
	109	Ix(x_aux_10by5:TIA_H_IN_+[1])	subckt_current
	110	Ix(x_aux_10by5:TIA_H_IN_+[2])	subckt_current
	111	Ix(x_aux_10by5:TIA_H_IN_+[3])	subckt_current
	112	Ix(x_aux_10by5:TIA_H_IN_+[4])	subckt_current
	113	Ix(x_aux_10by5:TIA_H_IN_-[0])	subckt_current
	114	Ix(x_aux_10by5:TIA_H_IN_-[1])	subckt_current
	115	Ix(x_aux_10by5:TIA_H_IN_-[2])	subckt_current
	116	Ix(x_aux_10by5:TIA_H_IN_-[3])	subckt_current
	117	Ix(x_aux_10by5:TIA_H_IN_-[4])	subckt_current
	118	Ix(x_aux_10by5:H_ACT_OUT[0])	subckt_current
	119	Ix(x_aux_10by5:H_ACT_OUT[1])	subckt_current
	120	Ix(x_aux_10by5:H_ACT_OUT[2])	subckt_current
	121	Ix(x_aux_10by5:H_ACT_OUT[3])	subckt_current
	122	Ix(x_aux_10by5:H_ACT_OUT[4])	subckt_current
	123	Ix(x_cbar_6by2:VIN[0])	subckt_current
	124	Ix(x_cbar_6by2:VIN[1])	subckt_current
	125	Ix(x_cbar_6by2:VIN[2])	subckt_current
	126	Ix(x_cbar_6by2:VIN[3])	subckt_current
	127	Ix(x_cbar_6by2:VIN[4])	subckt_current
	128	Ix(x_cbar_6by2:VIN[5])	subckt_current
	129	Ix(x_cbar_6by2:VOUT_+[0])	subckt_current
	130	Ix(x_cbar_6by2:VOUT_-[0])	subckt_current
	131	Ix(x_aux_2by1:TIA_H_IN_+[0])	subckt_current
	132	Ix(x_aux_2by1:TIA_H_IN_-[0])	subckt_current
	133	Ix(x_aux_2by1:H_ACT_OUT[0])	subckt_current
Values:
0		0.000000000000000e+00
	-4.269015675145611e-04
	-4.268947912792281e-04
	-4.269018601662637e-04
	-4.268831361011293e-04
	-4.269018401168181e-04
	-4.268865354915141e-04
	-4.269012863862882e-04
	-4.268982799890169e-04
	-4.268802029842539e-04
	-4.269011682748887e-04
	0.000000000000000e+00
	0.000000000000000e+00
	0.000000000000000e+00
	0.000000000000000e+00
	0.000000000000000e+00
	0.000000000000000e+00
	0.000000000000000e+00
	0.000000000000000e+00
	0.000000000000000e+00
	0.000000000000000e+00
	0.000000000000000e+00
	0.000000000000000e+00
	0.000000000000000e+00
	0.000000000000000e+00
	0.000000000000000e+00
	0.000000000000000e+00
	0.000000000000000e+00
	0.000000000000000e+00
	0.000000000000000e+00
	0.000000000000000e+00
	0.000000000000000e+00
	0.000000000000000e+00
	0.000000000000000e+00
	0.000000000000000e+00
	0.000000000000000e+00
	1.548948221370973e-06
	1.548948175295881e-06
	1.548948184859886e-06
	1.548948241730571e-06
	1.548948734005963e-06
	-4.269255948119151e-04
	-4.269204966342682e-04
	0.000000000000000e+00
	1.548948237309536e-06
	-3.292595423247712e-07
	-3.458583825160835e-07
	-3.449752934913177e-07
	-3.346133842912534e-07
	-3.388830040771219e-07
	-3.347257575171581e-07
	-3.457462639021562e-07
	-3.370933012495713e-07
	-3.421022327788949e-07
	-3.411948748838785e-07
	-3.498990190061891e-07
	-3.375224353019748e-07
	-3.366221022495966e-07
	-3.399039558130661e-07
	-3.517987385484706e-07
	-3.433853374476178e-07
	-3.444542141430963e-07
	-3.452850458086027e-07
	-3.475310635517183e-07
	-3.347443964955204e-07
	-3.500547403350468e-07
	-3.435377721499658e-07
	-3.409680577408698e-07
	-3.416492644986644e-07
	-3.341034833029197e-07
	-4.144745881289929e-07
	-7.650070421790231e-08
	3.292595423247713e-07
	3.458583825160834e-07
	3.449752934913177e-07
	3.346133842912534e-07
	3.388830040771219e-07
	3.347257575171581e-07
	3.457462639021562e-07
	3.370933012495713e-07
	3.421022327788948e-07
	3.411948748838786e-07
	3.498990190061892e-07
	3.375224353019748e-07
	3.366221022495965e-07
	3.399039558130661e-07
	3.517987385484705e-07
	3.433853374476178e-07
	3.444542141430964e-07
	3.452850458086027e-07
	3.475310635517183e-07
	3.347443964955204e-07
	3.500547403350468e-07
	3.435377721499658e-07
	3.409680577408698e-07
	3.416492644986644e-07
	3.341034833029197e-07
	4.144745881289929e-07
	-7.616791014187872e-07
	-7.891639807876145e-07
	-7.798620484653376e-07
	-7.572609338315575e-07
	-1.164329931109863e-06
	-8.942899362763277e-07
	-1.157265387026586e-06
	-1.080566792045409e-06
	-8.155672244374786e-07
	-7.504009161555592e-07
	-3.077380353350614e-06
	-3.049834715233267e-06
	-3.059140797924490e-06
	-3.081856899313829e-06
	-2.679166060229791e-06
	-2.946176676314669e-06
	-2.685621510244621e-06
	-2.761614205695049e-06
	-3.024174880288443e-06
	-3.088741447654641e-06
	-8.030594046471410e-08
	-1.045207881556372e-07
	-1.156965634109675e-07
	-7.099251112257927e-08
	-8.216345926404471e-08
	8.137116190129546e-08
	1.042930439067409e-07
	1.142588584969440e-07
	7.157535348350667e-08
	8.115755267463807e-08
	7.650070421790231e-08
	-2.148921388970987e-07
	-3.142645357839287e-07
	-3.619177756641817e-06
	-3.520864067535493e-06
	-2.120396621522701e-10
